Circuit: * C:\Users\leand\OneDrive\Documents\ULB\ULB course\Master 1\ELECY400 - Analog electronics\Analog Electronics\2022\LTSpice\final_project.asc

Warning: No WPE as none of SCA, SCB, SCC, SC is given and/or SC not positive.
Warning: LTspice uses BSIM4 version 4.6.1. Your model specified an unrecognized version number: 4.5000e+00
Warning:  Acde = 0.0146993 is too small.
Warning: No WPE as none of SCA, SCB, SCC, SC is given and/or SC not positive.
Warning: LTspice uses BSIM4 version 4.6.1. Your model specified an unrecognized version number: 4.5000e+00
Warning:  Acde = 0.0146993 is too small.
Warning: No WPE as none of SCA, SCB, SCC, SC is given and/or SC not positive.
Warning: LTspice uses BSIM4 version 4.6.1. Your model specified an unrecognized version number: 4.5000e+00
Warning:  Acde = 0.0146993 is too small.
Warning: No WPE as none of SCA, SCB, SCC, SC is given and/or SC not positive.
Warning: LTspice uses BSIM4 version 4.6.1. Your model specified an unrecognized version number: 4.5000e+00
Warning: No WPE as none of SCA, SCB, SCC, SC is given and/or SC not positive.
Warning: LTspice uses BSIM4 version 4.6.1. Your model specified an unrecognized version number: 4.5000e+00
Warning: No WPE as none of SCA, SCB, SCC, SC is given and/or SC not positive.
Warning: LTspice uses BSIM4 version 4.6.1. Your model specified an unrecognized version number: 4.5000e+00
Warning: No WPE as none of SCA, SCB, SCC, SC is given and/or SC not positive.
Warning: LTspice uses BSIM4 version 4.6.1. Your model specified an unrecognized version number: 4.5000e+00
Warning: No WPE as none of SCA, SCB, SCC, SC is given and/or SC not positive.
Warning: LTspice uses BSIM4 version 4.6.1. Your model specified an unrecognized version number: 4.5000e+00
Direct Newton iteration for .op point succeeded.
Semiconductor Device Operating Points:
                        --- BSIM4 MOSFETS ---
Name:      mn6         mn3         mn4         mp5         mp2
Model: n_11_sprvt  n_11_sprvt  n_11_sprvt  p_11_sprvt  p_11_sprvt
Id:      4.71e-05    2.02e-05    2.02e-05   -4.71e-05   -2.02e-05
Vgs:     4.03e-01    4.02e-01    4.02e-01   -4.09e-01   -4.28e-01
Vds:     4.57e-01    4.02e-01    4.03e-01   -6.43e-01   -5.03e-01
Vbs:     0.00e+00    0.00e+00    0.00e+00    0.00e+00    0.00e+00
Vth:     2.56e-01    7.74e-02    7.74e-02   -2.09e-01   -2.96e-01
Vdsat:   1.19e-01    2.04e-01    2.04e-01   -1.78e-01   -1.42e-01
Gm:      5.69e-04    1.66e-04    1.66e-04    3.94e-04    2.02e-04
Gds:     2.24e-05    7.13e-06    7.13e-06    8.88e-06    9.32e-06
Gmb      3.88e-05    7.63e-06    7.64e-06    3.62e-05    1.87e-05
Cbd:     4.93e-16    6.01e-16    6.01e-16    4.80e-15    5.37e-16
Cbs:     5.94e-16    7.11e-16    7.11e-16    7.63e-15    7.91e-16

Name:      mp1         mp7         mp8
Model: p_11_sprvt  p_11_sprvt  p_11_sprvt
Id:     -2.02e-05   -4.04e-05   -3.99e-05
Vgs:    -4.28e-01   -4.09e-01   -4.09e-01
Vds:    -5.04e-01   -1.94e-01   -4.09e-01
Vbs:     0.00e+00    0.00e+00    0.00e+00
Vth:    -2.96e-01   -2.05e-01   -2.07e-01
Vdsat:  -1.42e-01   -1.81e-01   -1.79e-01
Gm:      2.02e-04    3.16e-04    3.34e-04
Gds:     9.32e-06    6.75e-05    1.21e-05
Gmb      1.87e-05    2.89e-05    3.03e-05
Cbd:     5.37e-16    6.63e-15    4.87e-15
Cbs:     7.91e-16    7.99e-15    6.83e-15



Date: Fri May 27 12:05:46 2022
Total elapsed time: 0.072 seconds.

tnom = 27
temp = 27
method = trap
totiter = 24
traniter = 0
tranpoints = 0
accept = 0
rejected = 0
matrix size = 30
fillins = 14
solver = Normal
Matrix Compiler1:     158 opcodes
Matrix Compiler2: 3.02 KB object code size
